Circuit: * C:\Users\kds\Documents\capstone\IR touch screen\Draft2.asc

Direct Newton iteration for .op point succeeded.
Semiconductor Device Operating Points:
                        --- VDMOSFET Transistors ---
Name:          m1
Model:        bss84
Id:          4.50e-04
Vgs:         4.99e-01
Vds:         4.99e-01
Vth:        -2.10e+00
Gm:          0.00e+00
Gds:         0.00e+00
Cgs:         2.00e-11
Cgd:         2.48e-11
Cbody:       1.41e-11



Date: Tue Sep 13 13:42:14 2016
Total elapsed time: 0.042 seconds.

tnom = 27
temp = 27
method = trap
totiter = 12
traniter = 0
tranpoints = 0
accept = 0
rejected = 0
matrix size = 7
fillins = 0
solver = Normal
Matrix Compiler1: 384 bytes object code size
Matrix Compiler2: 563 bytes object code size

